time	V(n001)	V(n002)	V(n003)	V(n004)	I(L1)
0.000000000000000e+000	1.200000e+001	2.000178e-012	2.000000e-012	1.000000e+000	2.000000e+000
4.999999892015664e+000	1.200000e+001	2.004329e-012	2.000000e-012	1.000000e+000	2.000000e+000
4.999999994903009e+000	1.200000e+001	2.004329e-012	2.741654e-009	6.597663e-001	2.000000e+000
5.000000043216627e+000	1.200000e+001	2.004329e-012	9.973917e-009	2.383983e-001	2.000000e+000
5.000000087244956e+000	1.200000e+001	2.004329e-012	2.273038e-008	0.000000e+000	2.000000e+000
5.005600887443330e+000	1.200000e+001	-6.895068e-009	1.866662e-003	0.000000e+000	1.999999e+000
5.011201687641704e+000	1.200000e+001	2.818863e-012	3.732700e-003	0.000000e+000	1.999996e+000
5.016802487840078e+000	1.200000e+001	2.069567e-008	5.598136e-003	0.000000e+000	1.999990e+000
5.022403288038452e+000	1.200000e+001	5.518347e-008	7.462971e-003	0.000000e+000	1.999983e+000
5.028004088236825e+000	1.200000e+001	1.034662e-007	9.327204e-003	0.000000e+000	1.999973e+000
5.033604888435200e+000	1.200000e+001	1.655440e-007	1.119084e-002	0.000000e+000	1.999961e+000
5.039205688633573e+000	1.200000e+001	2.414166e-007	1.305387e-002	0.000000e+000	1.999948e+000
5.048873629138125e+000	1.200000e+001	4.675445e-007	1.626833e-002	0.000000e+000	1.999919e+000
5.060927705036525e+000	1.200000e+001	9.055117e-007	2.027361e-002	0.000000e+000	1.999873e+000
5.075959202236505e+000	1.200000e+001	1.753896e-006	2.526420e-002	0.000000e+000	1.999803e+000
5.094704978765655e+000	1.200000e+001	3.397404e-006	3.148170e-002	0.000000e+000	1.999694e+000
5.118087317116082e+000	1.200000e+001	6.581798e-006	3.922717e-002	0.000000e+000	1.999525e+000
5.147258011174406e+000	1.200000e+001	1.275269e-005	4.887451e-002	0.000000e+000	1.999262e+000
5.183660077556673e+000	1.200000e+001	2.471395e-005	6.088883e-002	0.000000e+000	1.998853e+000
5.229100451558412e+000	1.200000e+001	4.790543e-005	7.584716e-002	0.000000e+000	1.998216e+000
5.285848502769298e+000	1.200000e+001	9.288888e-005	9.446551e-002	0.000000e+000	1.997227e+000
5.356757739413883e+000	1.200000e+001	1.801847e-004	1.176300e-001	0.000000e+000	1.995688e+000
5.445429843947662e+000	1.200000e+001	3.470549e-004	1.464411e-001	0.000000e+000	1.993310e+000
5.545429843947662e+000	1.200000e+001	6.244628e-004	1.787260e-001	0.000000e+000	1.990049e+000
5.645429843947661e+000	1.200000e+001	1.016235e-003	2.107792e-001	0.000000e+000	1.986171e+000
5.745429843947661e+000	1.200000e+001	1.545228e-003	2.425852e-001	0.000000e+000	1.981663e+000
5.845429843947660e+000	1.200000e+001	2.231470e-003	2.741348e-001	0.000000e+000	1.976533e+000
5.945429843947660e+000	1.200000e+001	3.094603e-003	3.054193e-001	0.000000e+000	1.970791e+000
6.045429843947660e+000	1.200000e+001	4.153867e-003	3.364300e-001	0.000000e+000	1.964445e+000
6.145429843947659e+000	1.200000e+001	5.428084e-003	3.671585e-001	0.000000e+000	1.957505e+000
6.245429843947659e+000	1.200000e+001	6.935641e-003	3.975966e-001	0.000000e+000	1.949981e+000
6.345429843947659e+000	1.200000e+001	8.694473e-003	4.277362e-001	0.000000e+000	1.941884e+000
6.445429843947658e+000	1.200000e+001	1.072205e-002	4.575696e-001	0.000000e+000	1.933225e+000
6.545429843947658e+000	1.200000e+001	1.303537e-002	4.870892e-001	0.000000e+000	1.924016e+000
6.645429843947658e+000	1.200000e+001	1.565093e-002	5.162878e-001	0.000000e+000	1.914269e+000
6.745429843947657e+000	1.200000e+001	1.858473e-002	5.451582e-001	0.000000e+000	1.903997e+000
6.845429843947657e+000	1.200000e+001	2.185224e-002	5.736937e-001	0.000000e+000	1.893213e+000
6.945429843947657e+000	1.200000e+001	2.546840e-002	6.018877e-001	0.000000e+000	1.881930e+000
7.045429843947656e+000	1.200000e+001	2.944763e-002	6.297340e-001	0.000000e+000	1.870163e+000
7.145429843947656e+000	1.200000e+001	3.380378e-002	6.572265e-001	0.000000e+000	1.857926e+000
7.245429843947655e+000	1.200000e+001	3.855012e-002	6.843596e-001	0.000000e+000	1.845234e+000
7.345429843947655e+000	1.200000e+001	4.369939e-002	7.111276e-001	0.000000e+000	1.832102e+000
7.445429843947655e+000	1.200000e+001	4.926373e-002	7.375257e-001	0.000000e+000	1.818545e+000
7.545429843947654e+000	1.200000e+001	5.525468e-002	7.635487e-001	0.000000e+000	1.804579e+000
7.645429843947654e+000	1.200000e+001	6.168318e-002	7.891922e-001	0.000000e+000	1.790221e+000
7.745429843947654e+000	1.200000e+001	6.855959e-002	8.144519e-001	0.000000e+000	1.775487e+000
7.845429843947653e+000	1.200000e+001	7.589366e-002	8.393238e-001	0.000000e+000	1.760394e+000
7.945429843947653e+000	1.200000e+001	8.369449e-002	8.638041e-001	0.000000e+000	1.744958e+000
8.045429843947654e+000	1.200000e+001	9.197059e-002	8.878896e-001	0.000000e+000	1.729198e+000
8.245429843947653e+000	1.200000e+001	1.099795e-001	9.348640e-001	0.000000e+000	1.696773e+000
8.445429843947652e+000	1.200000e+001	1.299758e-001	9.802262e-001	0.000000e+000	1.663261e+000
8.645429843947651e+000	1.200000e+001	1.520047e-001	1.023960e+000	0.000000e+000	1.628808e+000
8.845429843947651e+000	1.200000e+001	1.761014e-001	1.066056e+000	0.000000e+000	1.593560e+000
9.045429843947650e+000	1.200000e+001	2.022907e-001	1.106506e+000	0.000000e+000	1.557668e+000
9.345429843947649e+000	1.200000e+001	2.455276e-001	1.164099e+000	0.000000e+000	1.502946e+000
9.645429843947648e+000	1.200000e+001	2.935106e-001	1.218009e+000	0.000000e+000	1.447617e+000
9.945429843947647e+000	1.200000e+001	3.461966e-001	1.268280e+000	0.000000e+000	1.392183e+000
1.024542984394765e+001	1.200000e+001	4.034933e-001	1.314979e+000	0.000000e+000	1.337140e+000
1.058828698680479e+001	1.200000e+001	4.755564e-001	1.363462e+000	0.000000e+000	1.273855e+000
1.093114412966193e+001	1.200000e+001	5.521181e-001	1.408173e+000	0.000000e+000	1.213933e+000
1.127400127251907e+001	1.200000e+001	6.331786e-001	1.449113e+000	0.000000e+000	1.157372e+000
1.161685841537621e+001	1.200000e+001	7.187378e-001	1.486281e+000	0.000000e+000	1.104174e+000
1.195971555823335e+001	1.200000e+001	8.087957e-001	1.519678e+000	0.000000e+000	1.054338e+000
1.230257270109050e+001	1.200000e+001	9.033524e-001	1.549302e+000	0.000000e+000	1.007864e+000
1.264542984394764e+001	1.200000e+001	1.002408e+000	1.575155e+000	0.000000e+000	9.647515e-001
1.294542984394764e+001	1.200000e+001	1.090145e+000	1.596139e+000	0.000000e+000	9.323727e-001
1.324542984394764e+001	1.200000e+001	1.179441e+000	1.615271e+000	0.000000e+000	9.041044e-001
1.354542984394763e+001	1.200000e+001	1.269852e+000	1.632792e+000	0.000000e+000	8.801306e-001
1.384542984394763e+001	1.200000e+001	1.360927e+000	1.648944e+000	0.000000e+000	8.605945e-001
1.414542984394763e+001	1.200000e+001	1.452208e+000	1.663973e+000	0.000000e+000	8.455967e-001
1.444542984394763e+001	1.200000e+001	1.543240e+000	1.678124e+000	0.000000e+000	8.351960e-001
1.474542984394763e+001	1.200000e+001	1.633569e+000	1.691640e+000	0.000000e+000	8.294092e-001
1.504542984394763e+001	1.200000e+001	1.722751e+000	1.704760e+000	0.000000e+000	8.282117e-001
1.534542984394763e+001	1.200000e+001	1.810352e+000	1.717716e+000	0.000000e+000	8.315383e-001
1.564542984394763e+001	1.200000e+001	1.895955e+000	1.730734e+000	0.000000e+000	8.392845e-001
1.594542984394763e+001	1.200000e+001	1.979160e+000	1.744027e+000	0.000000e+000	8.513083e-001
1.624542984394763e+001	1.200000e+001	2.059593e+000	1.757800e+000	0.000000e+000	8.674318e-001
1.654542984394763e+001	1.200000e+001	2.136902e+000	1.772242e+000	0.000000e+000	8.874434e-001
1.681685841537621e+001	1.200000e+001	2.204283e+000	1.785808e+000	0.000000e+000	9.092954e-001
1.708828698680479e+001	1.200000e+001	2.268209e+000	1.800421e+000	0.000000e+000	9.333466e-001
1.735971555823336e+001	1.200000e+001	2.328681e+000	1.816079e+000	0.000000e+000	9.595970e-001
1.763114412966193e+001	1.200000e+001	2.385697e+000	1.832783e+000	0.000000e+000	9.880466e-001
1.790257270109051e+001	1.200000e+001	2.439259e+000	1.850533e+000	0.000000e+000	1.018695e+000
1.817400127251909e+001	1.200000e+001	2.489365e+000	1.869329e+000	0.000000e+000	1.051544e+000
1.844542984394766e+001	1.200000e+001	2.536017e+000	1.889170e+000	0.000000e+000	1.086591e+000
1.870257270109052e+001	1.200000e+001	2.576313e+000	1.909326e+000	0.000000e+000	1.120994e+000
1.895971555823338e+001	1.200000e+001	2.613134e+000	1.930666e+000	0.000000e+000	1.155713e+000
1.921685841537624e+001	1.200000e+001	2.646481e+000	1.953192e+000	0.000000e+000	1.190748e+000
1.947400127251910e+001	1.200000e+001	2.676354e+000	1.976903e+000	0.000000e+000	1.226099e+000
1.973114412966197e+001	1.200000e+001	2.702753e+000	2.001799e+000	0.000000e+000	1.261765e+000
1.998828698680483e+001	1.200000e+001	2.725677e+000	2.027880e+000	0.000000e+000	1.297748e+000
2.024542984394769e+001	1.200000e+001	2.745127e+000	2.055146e+000	0.000000e+000	1.334046e+000
2.041685841537626e+001	1.200000e+001	2.756217e+000	2.073977e+000	0.000000e+000	1.357731e+000
2.058828698680484e+001	1.200000e+001	2.765961e+000	2.093256e+000	0.000000e+000	1.380965e+000
2.075971555823341e+001	1.200000e+001	2.774360e+000	2.112982e+000	0.000000e+000	1.403748e+000
2.093114412966198e+001	1.200000e+001	2.781412e+000	2.133155e+000	0.000000e+000	1.426079e+000
2.110257270109056e+001	1.200000e+001	2.787119e+000	2.153775e+000	0.000000e+000	1.447959e+000
2.127400127251913e+001	1.200000e+001	2.791480e+000	2.174842e+000	0.000000e+000	1.469388e+000
2.144542984394770e+001	1.200000e+001	2.794495e+000	2.196357e+000	0.000000e+000	1.490364e+000
2.154542984394771e+001	1.200000e+001	2.795757e+000	2.209058e+000	0.000000e+000	1.502213e+000
2.164542984394771e+001	1.200000e+001	2.796622e+000	2.221884e+000	0.000000e+000	1.513827e+000
2.174542984394771e+001	1.200000e+001	2.797100e+000	2.234829e+000	0.000000e+000	1.525197e+000
2.184542984394771e+001	1.200000e+001	2.797202e+000	2.247890e+000	0.000000e+000	1.536313e+000
2.194542984394771e+001	1.200000e+001	2.796938e+000	2.261060e+000	0.000000e+000	1.547165e+000
2.204542984394771e+001	1.200000e+001	2.796319e+000	2.274337e+000	0.000000e+000	1.557744e+000
2.214542984394771e+001	1.200000e+001	2.795357e+000	2.287712e+000	0.000000e+000	1.568040e+000
2.224542984394772e+001	1.200000e+001	2.794063e+000	2.301183e+000	0.000000e+000	1.578045e+000
2.234542984394772e+001	1.200000e+001	2.792448e+000	2.314742e+000	0.000000e+000	1.587751e+000
2.244542984394772e+001	1.200000e+001	2.790525e+000	2.328386e+000	0.000000e+000	1.597149e+000
2.254542984394772e+001	1.200000e+001	2.788305e+000	2.342107e+000	0.000000e+000	1.606233e+000
2.274542984394772e+001	1.200000e+001	2.783025e+000	2.369761e+000	0.000000e+000	1.623425e+000
2.294542984394773e+001	1.200000e+001	2.776708e+000	2.397656e+000	0.000000e+000	1.639275e+000
2.314542984394773e+001	1.200000e+001	2.769456e+000	2.425746e+000	0.000000e+000	1.653733e+000
2.334542984394773e+001	1.200000e+001	2.761373e+000	2.453981e+000	0.000000e+000	1.666757e+000
2.354542984394773e+001	1.200000e+001	2.752564e+000	2.482311e+000	0.000000e+000	1.678312e+000
2.374542984394774e+001	1.200000e+001	2.743136e+000	2.510687e+000	0.000000e+000	1.688367e+000
2.394542984394774e+001	1.200000e+001	2.733197e+000	2.539057e+000	0.000000e+000	1.696900e+000
2.414542984394774e+001	1.200000e+001	2.722852e+000	2.567371e+000	0.000000e+000	1.703893e+000
2.444542984394775e+001	1.200000e+001	2.706810e+000	2.609626e+000	0.000000e+000	1.711474e+000
2.474542984394775e+001	1.200000e+001	2.690455e+000	2.651472e+000	0.000000e+000	1.715557e+000
2.504542984394776e+001	1.200000e+001	2.674139e+000	2.692742e+000	0.000000e+000	1.716165e+000
2.534542984394776e+001	1.200000e+001	2.658203e+000	2.733274e+000	0.000000e+000	1.713348e+000
2.564542984394776e+001	1.200000e+001	2.642976e+000	2.772914e+000	0.000000e+000	1.707190e+000
2.594542984394777e+001	1.200000e+001	2.628773e+000	2.811512e+000	0.000000e+000	1.697799e+000
2.624542984394777e+001	1.200000e+001	2.615891e+000	2.848929e+000	0.000000e+000	1.685314e+000
2.644542984394778e+001	1.200000e+001	2.608175e+000	2.873153e+000	0.000000e+000	1.675350e+000
2.664542984394778e+001	1.200000e+001	2.601247e+000	2.896758e+000	0.000000e+000	1.664137e+000
2.684542984394778e+001	1.200000e+001	2.595178e+000	2.919711e+000	0.000000e+000	1.651732e+000
2.704542984394778e+001	1.200000e+001	2.590036e+000	2.941980e+000	0.000000e+000	1.638198e+000
2.724542984394779e+001	1.200000e+001	2.585884e+000	2.963537e+000	0.000000e+000	1.623602e+000
2.744542984394779e+001	1.200000e+001	2.582779e+000	2.984354e+000	0.000000e+000	1.608013e+000
2.754542984394779e+001	1.200000e+001	2.581635e+000	2.994479e+000	0.000000e+000	1.599869e+000
2.764542984394779e+001	1.200000e+001	2.580772e+000	3.004410e+000	0.000000e+000	1.591504e+000
2.774542984394779e+001	1.200000e+001	2.580196e+000	3.014146e+000	0.000000e+000	1.582928e+000
2.784542984394780e+001	1.200000e+001	2.579911e+000	3.023683e+000	0.000000e+000	1.574151e+000
2.794542984394780e+001	1.200000e+001	2.579922e+000	3.033020e+000	0.000000e+000	1.565182e+000
2.804542984394780e+001	1.200000e+001	2.580235e+000	3.042154e+000	0.000000e+000	1.556032e+000
2.824542984394780e+001	1.200000e+001	2.581780e+000	3.059810e+000	0.000000e+000	1.537228e+000
2.854542984394780e+001	1.200000e+001	2.586449e+000	3.084736e+000	0.000000e+000	1.507917e+000
2.873114412966209e+001	1.200000e+001	2.590779e+000	3.099216e+000	0.000000e+000	1.489045e+000
2.891685841537638e+001	1.200000e+001	2.596233e+000	3.112967e+000	0.000000e+000	1.470002e+000
2.910257270109067e+001	1.200000e+001	2.602812e+000	3.125990e+000	0.000000e+000	1.450788e+000
2.928828698680496e+001	1.200000e+001	2.610515e+000	3.138284e+000	0.000000e+000	1.431404e+000
2.947400127251925e+001	1.200000e+001	2.619341e+000	3.149849e+000	0.000000e+000	1.411850e+000
2.965971555823354e+001	1.200000e+001	2.629292e+000	3.160686e+000	0.000000e+000	1.392125e+000
2.984542984394782e+001	1.200000e+001	2.640367e+000	3.170794e+000	0.000000e+000	1.372230e+000
3.008828698680497e+001	1.200000e+001	2.656666e+000	3.182859e+000	0.000000e+000	1.346208e+000
3.033114412966211e+001	1.200000e+001	2.674643e+000	3.193823e+000	0.000000e+000	1.320802e+000
3.057400127251926e+001	1.200000e+001	2.694298e+000	3.203685e+000	0.000000e+000	1.296011e+000
3.081685841537641e+001	1.200000e+001	2.715630e+000	3.212447e+000	0.000000e+000	1.271835e+000
3.105971555823356e+001	1.200000e+001	2.738641e+000	3.220108e+000	0.000000e+000	1.248275e+000
3.130257270109070e+001	1.200000e+001	2.763329e+000	3.226667e+000	0.000000e+000	1.225330e+000
3.154542984394785e+001	1.200000e+001	2.789695e+000	3.232126e+000	0.000000e+000	1.203000e+000
3.184542984394785e+001	1.200000e+001	2.823915e+000	3.237710e+000	0.000000e+000	1.177298e+000
3.204542984394785e+001	1.200000e+001	2.847795e+000	3.240691e+000	0.000000e+000	1.161161e+000
3.224542984394785e+001	1.200000e+001	2.872451e+000	3.243119e+000	0.000000e+000	1.145887e+000
3.244542984394786e+001	1.200000e+001	2.897818e+000	3.245028e+000	0.000000e+000	1.131526e+000
3.254542984394786e+001	1.200000e+001	2.910746e+000	3.245800e+000	0.000000e+000	1.124704e+000
3.264542984394786e+001	1.200000e+001	2.923825e+000	3.246456e+000	0.000000e+000	1.118127e+000
3.274542984394786e+001	1.200000e+001	2.937046e+000	3.247001e+000	0.000000e+000	1.111801e+000
3.284542984394786e+001	1.200000e+001	2.950400e+000	3.247441e+000	0.000000e+000	1.105731e+000
3.294542984394786e+001	1.200000e+001	2.963877e+000	3.247779e+000	0.000000e+000	1.099921e+000
3.304542984394787e+001	1.200000e+001	2.977468e+000	3.248021e+000	0.000000e+000	1.094377e+000
3.314542984394787e+001	1.200000e+001	2.991164e+000	3.248171e+000	0.000000e+000	1.089101e+000
3.324542984394787e+001	1.200000e+001	3.004955e+000	3.248236e+000	0.000000e+000	1.084098e+000
3.334542984394787e+001	1.200000e+001	3.018831e+000	3.248219e+000	0.000000e+000	1.079372e+000
3.344542984394787e+001	1.200000e+001	3.032783e+000	3.248126e+000	0.000000e+000	1.074924e+000
3.354542984394787e+001	1.200000e+001	3.046800e+000	3.247962e+000	0.000000e+000	1.070759e+000
3.364542984394787e+001	1.200000e+001	3.060874e+000	3.247732e+000	0.000000e+000	1.066879e+000
3.374542984394788e+001	1.200000e+001	3.074994e+000	3.247441e+000	0.000000e+000	1.063286e+000
3.384542984394788e+001	1.200000e+001	3.089150e+000	3.247095e+000	0.000000e+000	1.059982e+000
3.394542984394788e+001	1.200000e+001	3.103333e+000	3.246698e+000	0.000000e+000	1.056969e+000
3.404542984394788e+001	1.200000e+001	3.117532e+000	3.246255e+000	0.000000e+000	1.054248e+000
3.414542984394788e+001	1.200000e+001	3.131739e+000	3.245773e+000	0.000000e+000	1.051821e+000
3.424542984394788e+001	1.200000e+001	3.145942e+000	3.245255e+000	0.000000e+000	1.049687e+000
3.434542984394788e+001	1.200000e+001	3.160133e+000	3.244706e+000	0.000000e+000	1.047848e+000
3.444542984394789e+001	1.200000e+001	3.174302e+000	3.244133e+000	0.000000e+000	1.046304e+000
3.454542984394789e+001	1.200000e+001	3.188438e+000	3.243540e+000	0.000000e+000	1.045055e+000
3.464542984394789e+001	1.200000e+001	3.202533e+000	3.242931e+000	0.000000e+000	1.044100e+000
3.474542984394789e+001	1.200000e+001	3.216576e+000	3.242313e+000	0.000000e+000	1.043439e+000
3.484542984394789e+001	1.200000e+001	3.230559e+000	3.241689e+000	0.000000e+000	1.043070e+000
3.494542984394789e+001	1.200000e+001	3.244472e+000	3.241066e+000	0.000000e+000	1.042993e+000
3.504542984394789e+001	1.200000e+001	3.258305e+000	3.240446e+000	0.000000e+000	1.043205e+000
3.514542984394790e+001	1.200000e+001	3.272050e+000	3.239837e+000	0.000000e+000	1.043706e+000
3.524542984394790e+001	1.200000e+001	3.285698e+000	3.239241e+000	0.000000e+000	1.044493e+000
3.534542984394790e+001	1.200000e+001	3.299239e+000	3.238664e+000	0.000000e+000	1.045563e+000
3.544542984394790e+001	1.200000e+001	3.312664e+000	3.238110e+000	0.000000e+000	1.046914e+000
3.554542984394790e+001	1.200000e+001	3.325966e+000	3.237584e+000	0.000000e+000	1.048544e+000
3.564542984394790e+001	1.200000e+001	3.339135e+000	3.237091e+000	0.000000e+000	1.050448e+000
3.574542984394790e+001	1.200000e+001	3.352164e+000	3.236634e+000	0.000000e+000	1.052624e+000
3.584542984394791e+001	1.200000e+001	3.365043e+000	3.236217e+000	0.000000e+000	1.055067e+000
3.594542984394791e+001	1.200000e+001	3.377766e+000	3.235847e+000	0.000000e+000	1.057775e+000
3.604542984394791e+001	1.200000e+001	3.390324e+000	3.235525e+000	0.000000e+000	1.060742e+000
3.614542984394791e+001	1.200000e+001	3.402709e+000	3.235256e+000	0.000000e+000	1.063964e+000
3.624542984394791e+001	1.200000e+001	3.414915e+000	3.235045e+000	0.000000e+000	1.067438e+000
3.634542984394791e+001	1.200000e+001	3.426933e+000	3.234895e+000	0.000000e+000	1.071157e+000
3.644542984394791e+001	1.200000e+001	3.438757e+000	3.234809e+000	0.000000e+000	1.075117e+000
3.654542984394792e+001	1.200000e+001	3.450380e+000	3.234791e+000	0.000000e+000	1.079312e+000
3.664542984394792e+001	1.200000e+001	3.461795e+000	3.234845e+000	0.000000e+000	1.083737e+000
3.674542984394792e+001	1.200000e+001	3.472997e+000	3.234975e+000	0.000000e+000	1.088387e+000
3.684542984394792e+001	1.200000e+001	3.483978e+000	3.235182e+000	0.000000e+000	1.093255e+000
3.694542984394792e+001	1.200000e+001	3.494733e+000	3.235472e+000	0.000000e+000	1.098336e+000
3.704542984394792e+001	1.200000e+001	3.505255e+000	3.235845e+000	0.000000e+000	1.103623e+000
3.714542984394792e+001	1.200000e+001	3.515541e+000	3.236307e+000	0.000000e+000	1.109109e+000
3.734542984394793e+001	1.200000e+001	3.535379e+000	3.237502e+000	0.000000e+000	1.120655e+000
3.754542984394793e+001	1.200000e+001	3.554209e+000	3.239080e+000	0.000000e+000	1.132918e+000
3.784542984394793e+001	1.200000e+001	3.580488e+000	3.242201e+000	0.000000e+000	1.152536e+000
3.805971555823365e+001	1.200000e+001	3.597803e+000	3.244990e+000	0.000000e+000	1.167546e+000
3.827400127251937e+001	1.200000e+001	3.613798e+000	3.248307e+000	0.000000e+000	1.182942e+000
3.848828698680509e+001	1.200000e+001	3.628475e+000	3.252152e+000	0.000000e+000	1.198723e+000
3.870257270109080e+001	1.200000e+001	3.641833e+000	3.256525e+000	0.000000e+000	1.214891e+000
3.891685841537652e+001	1.200000e+001	3.653872e+000	3.261425e+000	0.000000e+000	1.231444e+000
