time	I(C1)	I(C2)	I(L1)
0.000000000000000e+000	6.000534e-024	1.200000e-023	2.000000e+000
4.999999892015664e+000	-4.224162e-015	0.000000e+000	2.000000e+000
4.999999994903009e+000	-4.432065e-015	6.804675e-001	2.000000e+000
5.000000043216627e+000	-4.396240e-015	1.523203e+000	2.000000e+000
5.000000087244956e+000	-3.940396e-015	2.000000e+000	2.000000e+000
5.005600887443330e+000	1.073452e-006	1.999377e+000	1.999999e+000
5.011201687641704e+000	4.284530e-006	1.998751e+000	1.999996e+000
5.016802487840078e+000	9.633235e-006	1.998124e+000	1.999990e+000
5.022403288038452e+000	1.711957e-005	1.997495e+000	1.999983e+000
5.028004088236825e+000	2.674352e-005	1.996864e+000	1.999973e+000
5.033604888435200e+000	3.850511e-005	1.996231e+000	1.999961e+000
5.039205688633573e+000	5.240432e-005	1.995596e+000	1.999948e+000
5.048873629138125e+000	8.140550e-005	1.994496e+000	1.999919e+000
5.060927705036525e+000	1.264528e-004	1.993116e+000	1.999873e+000
5.075959202236505e+000	1.964269e-004	1.991382e+000	1.999803e+000
5.094704978765655e+000	3.051131e-004	1.989200e+000	1.999694e+000
5.118087317116082e+000	4.739283e-004	1.986449e+000	1.999525e+000
5.147258011174406e+000	7.361177e-004	1.982970e+000	1.999262e+000
5.183660077556673e+000	1.143311e-003	1.978556e+000	1.998853e+000
5.229100451558412e+000	1.775640e-003	1.972934e+000	1.998216e+000
5.285848502769298e+000	2.757481e-003	1.965739e+000	1.997227e+000
5.356757739413883e+000	4.281770e-003	1.956478e+000	1.995688e+000
5.445429843947662e+000	6.632559e-003	1.944496e+000	1.993310e+000
5.545429843947662e+000	9.846501e-003	1.930474e+000	1.990049e+000
5.645429843947661e+000	1.365985e-002	1.915911e+000	1.986171e+000
5.745429843947661e+000	1.807972e-002	1.900801e+000	1.981663e+000
5.845429843947660e+000	2.309478e-002	1.885155e+000	1.976533e+000
5.945429843947660e+000	2.869320e-002	1.868985e+000	1.970791e+000
6.045429843947660e+000	3.486266e-002	1.852302e+000	1.964445e+000
6.145429843947659e+000	4.159036e-002	1.835119e+000	1.957505e+000
6.245429843947659e+000	4.886302e-002	1.817449e+000	1.949981e+000
6.345429843947659e+000	5.666690e-002	1.799305e+000	1.941884e+000
6.445429843947658e+000	6.498787e-002	1.780702e+000	1.933225e+000
6.545429843947658e+000	7.381133e-002	1.761653e+000	1.924016e+000
6.645429843947658e+000	8.312231e-002	1.742173e+000	1.914269e+000
6.745429843947657e+000	9.290545e-002	1.722278e+000	1.903997e+000
6.845429843947657e+000	1.031450e-001	1.701982e+000	1.893213e+000
6.945429843947657e+000	1.138249e-001	1.681301e+000	1.881930e+000
7.045429843947656e+000	1.249288e-001	1.660252e+000	1.870163e+000
7.145429843947656e+000	1.364398e-001	1.638851e+000	1.857926e+000
7.245429843947655e+000	1.483411e-001	1.617114e+000	1.845234e+000
7.345429843947655e+000	1.606153e-001	1.595059e+000	1.832102e+000
7.445429843947655e+000	1.732448e-001	1.572703e+000	1.818545e+000
7.545429843947654e+000	1.862119e-001	1.550063e+000	1.804579e+000
7.645429843947654e+000	1.994985e-001	1.527157e+000	1.790221e+000
7.745429843947654e+000	2.130864e-001	1.504003e+000	1.775487e+000
7.845429843947653e+000	2.269573e-001	1.480619e+000	1.760394e+000
7.945429843947653e+000	2.410925e-001	1.457024e+000	1.744958e+000
8.045429843947654e+000	2.554735e-001	1.433235e+000	1.729198e+000
8.245429843947653e+000	2.848970e-001	1.385152e+000	1.696773e+000
8.445429843947652e+000	3.150761e-001	1.336519e+000	1.663261e+000
8.645429843947651e+000	3.458579e-001	1.287488e+000	1.628808e+000
8.845429843947651e+000	3.770893e-001	1.238209e+000	1.593560e+000
9.045429843947650e+000	4.086172e-001	1.188832e+000	1.557668e+000
9.345429843947649e+000	4.561322e-001	1.114914e+000	1.502946e+000
9.645429843947648e+000	5.034644e-001	1.041614e+000	1.447617e+000
9.945429843947647e+000	5.501176e-001	9.694231e-001	1.392183e+000
1.024542984394765e+001	5.956111e-001	8.988137e-001	1.337140e+000
1.058828698680479e+001	6.468853e-001	8.193680e-001	1.273855e+000
1.093114412966193e+001	6.940476e-001	7.445416e-001	1.213933e+000
1.127400127251907e+001	7.370980e-001	6.743346e-001	1.157372e+000
1.161685841537621e+001	7.760365e-001	6.087469e-001	1.104174e+000
1.195971555823335e+001	8.108631e-001	5.477785e-001	1.054338e+000
1.230257270109050e+001	8.415777e-001	4.914295e-001	1.007864e+000
1.264542984394764e+001	8.681805e-001	4.396998e-001	9.647515e-001
1.294542984394764e+001	8.859364e-001	4.003265e-001	9.323727e-001
1.324542984394764e+001	8.993222e-001	3.656807e-001	9.041044e-001
1.354542984394763e+001	9.082273e-001	3.358668e-001	8.801306e-001
1.384542984394763e+001	9.125844e-001	3.109466e-001	8.605945e-001
1.414542984394763e+001	9.123686e-001	2.909391e-001	8.455967e-001
1.444542984394763e+001	9.075973e-001	2.758214e-001	8.351960e-001
1.474542984394763e+001	8.983293e-001	2.655293e-001	8.294092e-001
1.504542984394763e+001	8.846632e-001	2.599584e-001	8.282117e-001
1.534542984394763e+001	8.667364e-001	2.589661e-001	8.315383e-001
1.564542984394763e+001	8.447231e-001	2.623732e-001	8.392845e-001
1.594542984394763e+001	8.188317e-001	2.699659e-001	8.513083e-001
1.624542984394763e+001	7.893028e-001	2.814985e-001	8.674318e-001
1.654542984394763e+001	7.564063e-001	2.966962e-001	8.874434e-001
1.681685841537621e+001	7.233241e-001	3.140259e-001	9.092954e-001
1.708828698680479e+001	6.886186e-001	3.332063e-001	9.333466e-001
1.735971555823336e+001	6.522896e-001	3.542373e-001	9.595970e-001
1.763114412966193e+001	6.143372e-001	3.771189e-001	9.880466e-001
1.790257270109051e+001	5.747614e-001	4.018511e-001	1.018695e+000
1.817400127251909e+001	5.335622e-001	4.284340e-001	1.051544e+000
1.844542984394766e+001	4.907397e-001	4.568674e-001	1.086591e+000
1.870257270109052e+001	4.496203e-001	4.845524e-001	1.120994e+000
1.895971555823338e+001	4.087642e-001	5.121580e-001	1.155713e+000
1.921685841537624e+001	3.681714e-001	5.396844e-001	1.190748e+000
1.947400127251910e+001	3.278420e-001	5.671314e-001	1.226099e+000
1.973114412966197e+001	2.877758e-001	5.944991e-001	1.261765e+000
1.998828698680483e+001	2.479730e-001	6.217876e-001	1.297748e+000
2.024542984394769e+001	2.084334e-001	6.489967e-001	1.334046e+000
2.041685841537626e+001	1.828994e-001	6.664053e-001	1.357731e+000
2.058828698680484e+001	1.580411e-001	6.832134e-001	1.380965e+000
2.075971555823341e+001	1.338586e-001	6.994209e-001	1.403748e+000
2.093114412966198e+001	1.103519e-001	7.150278e-001	1.426079e+000
2.110257270109056e+001	8.752095e-002	7.300342e-001	1.447959e+000
2.127400127251913e+001	6.536579e-002	7.444401e-001	1.469388e+000
2.144542984394770e+001	4.388642e-002	7.582453e-001	1.490364e+000
2.154542984394771e+001	3.182775e-002	7.658601e-001	1.502213e+000
2.164542984394771e+001	2.006923e-002	7.731993e-001	1.513827e+000
2.174542984394771e+001	8.619452e-003	7.802542e-001	1.525197e+000
2.184542984394771e+001	-2.513333e-003	7.870165e-001	1.536313e+000
2.194542984394771e+001	-1.332124e-002	7.934781e-001	1.547165e+000
2.204542984394771e+001	-2.379673e-002	7.996314e-001	1.557744e+000
2.214542984394771e+001	-3.393264e-002	8.054690e-001	1.568040e+000
2.224542984394772e+001	-4.372217e-002	8.109841e-001	1.578045e+000
2.234542984394772e+001	-5.315891e-002	8.161701e-001	1.587751e+000
2.244542984394772e+001	-6.223682e-002	8.210208e-001	1.597149e+000
2.254542984394772e+001	-7.095022e-002	8.255304e-001	1.606233e+000
2.274542984394772e+001	-8.726285e-002	8.335052e-001	1.623425e+000
2.294542984394773e+001	-1.020593e-001	8.400560e-001	1.639275e+000
2.314542984394773e+001	-1.153085e-001	8.451506e-001	1.653733e+000
2.334542984394773e+001	-1.269856e-001	8.487632e-001	1.666757e+000
2.354542984394773e+001	-1.370722e-001	8.508744e-001	1.678312e+000
2.374542984394774e+001	-1.455565e-001	8.514714e-001	1.688367e+000
2.394542984394774e+001	-1.524327e-001	8.505476e-001	1.696900e+000
2.414542984394774e+001	-1.577017e-001	8.481026e-001	1.703893e+000
2.444542984394775e+001	-1.626087e-001	8.415983e-001	1.711474e+000
2.474542984394775e+001	-1.639663e-001	8.317332e-001	1.715557e+000
2.504542984394776e+001	-1.618545e-001	8.185841e-001	1.716165e+000
2.534542984394776e+001	-1.563822e-001	8.022569e-001	1.713348e+000
2.564542984394776e+001	-1.476859e-001	7.828853e-001	1.707190e+000
2.594542984394777e+001	-1.359283e-001	7.606288e-001	1.697799e+000
2.624542984394777e+001	-1.212960e-001	7.356710e-001	1.685314e+000
2.644542984394778e+001	-1.100463e-001	7.176327e-001	1.675350e+000
2.664542984394778e+001	-9.767807e-002	6.985508e-001	1.664137e+000
2.684542984394778e+001	-8.426178e-002	6.784952e-001	1.651732e+000
2.704542984394778e+001	-6.987114e-002	6.575384e-001	1.638198e+000
2.724542984394779e+001	-5.458283e-002	6.357566e-001	1.623602e+000
2.744542984394779e+001	-3.847617e-002	6.132282e-001	1.608013e+000
2.754542984394779e+001	-3.014136e-002	6.017092e-001	1.599869e+000
2.764542984394779e+001	-2.163273e-002	5.900339e-001	1.591504e+000
2.774542984394779e+001	-1.296076e-002	5.782130e-001	1.582928e+000
2.784542984394780e+001	-4.136049e-003	5.662566e-001	1.574151e+000
2.794542984394780e+001	4.830717e-003	5.541756e-001	1.565182e+000
2.804542984394780e+001	1.392878e-002	5.419806e-001	1.556032e+000
2.824542984394780e+001	3.247541e-002	5.172913e-001	1.537228e+000
2.854542984394780e+001	6.100785e-002	4.796720e-001	1.507917e+000
2.873114412966209e+001	7.915882e-002	4.559727e-001	1.489045e+000
2.891685841537638e+001	9.729286e-002	4.323459e-001	1.470002e+000
2.910257270109067e+001	1.154100e-001	4.087915e-001	1.450788e+000
2.928828698680496e+001	1.335102e-001	3.853095e-001	1.431404e+000
2.947400127251925e+001	1.515935e-001	3.618999e-001	1.411850e+000
2.965971555823354e+001	1.696599e-001	3.385628e-001	1.392125e+000
2.984542984394782e+001	1.877093e-001	3.152982e-001	1.372230e+000
3.008828698680497e+001	2.110143e-001	2.852551e-001	1.346208e+000
3.033114412966211e+001	2.334243e-001	2.561944e-001	1.320802e+000
3.057400127251926e+001	2.549394e-001	2.281159e-001	1.296011e+000
3.081685841537641e+001	2.755596e-001	2.010197e-001	1.271835e+000
3.105971555823356e+001	2.952849e-001	1.749058e-001	1.248275e+000
3.130257270109070e+001	3.141152e-001	1.497742e-001	1.225330e+000
3.154542984394785e+001	3.320506e-001	1.256248e-001	1.203000e+000
3.184542984394785e+001	3.520491e-001	9.806167e-002	1.177298e+000
3.204542984394785e+001	3.642065e-001	8.093069e-002	1.161161e+000
3.224542984394785e+001	3.753715e-001	6.484707e-002	1.145887e+000
3.244542984394786e+001	3.855042e-001	4.985015e-002	1.131526e+000
3.254542984394786e+001	3.901721e-001	4.277024e-002	1.124704e+000
3.264542984394786e+001	3.945692e-001	3.597465e-002	1.118127e+000
3.274542984394786e+001	3.986915e-001	2.946701e-002	1.111801e+000
3.284542984394786e+001	4.025358e-001	2.325061e-002	1.105731e+000
3.294542984394786e+001	4.060991e-001	1.732847e-002	1.099921e+000
3.304542984394787e+001	4.093784e-001	1.170328e-002	1.094377e+000
3.314542984394787e+001	4.123713e-001	6.377465e-003	1.089101e+000
3.324542984394787e+001	4.150757e-001	1.353111e-003	1.084098e+000
3.334542984394787e+001	4.174897e-001	-3.367980e-003	1.079372e+000
3.344542984394787e+001	4.196118e-001	-7.784313e-003	1.074924e+000
3.354542984394787e+001	4.214406e-001	-1.189470e-002	1.070759e+000
3.364542984394787e+001	4.229752e-001	-1.569825e-002	1.066879e+000
3.374542984394788e+001	4.242149e-001	-1.919439e-002	1.063286e+000
3.384542984394788e+001	4.251595e-001	-2.238282e-002	1.059982e+000
3.394542984394788e+001	4.258088e-001	-2.526357e-002	1.056969e+000
3.404542984394788e+001	4.261631e-001	-2.783695e-002	1.054248e+000
3.414542984394788e+001	4.262229e-001	-3.010357e-002	1.051821e+000
3.424542984394788e+001	4.259891e-001	-3.206434e-002	1.049687e+000
3.434542984394788e+001	4.254628e-001	-3.372046e-002	1.047848e+000
3.444542984394789e+001	4.246455e-001	-3.507341e-002	1.046304e+000
3.454542984394789e+001	4.235387e-001	-3.612496e-002	1.045055e+000
3.464542984394789e+001	4.221446e-001	-3.687718e-002	1.044100e+000
3.474542984394789e+001	4.204654e-001	-3.733239e-002	1.043439e+000
3.484542984394789e+001	4.185036e-001	-3.749321e-002	1.043070e+000
3.494542984394789e+001	4.162620e-001	-3.736252e-002	1.042993e+000
3.504542984394789e+001	4.137438e-001	-3.694346e-002	1.043205e+000
3.514542984394790e+001	4.109522e-001	-3.623945e-002	1.043706e+000
3.524542984394790e+001	4.078909e-001	-3.525415e-002	1.044493e+000
3.534542984394790e+001	4.045638e-001	-3.399148e-002	1.045563e+000
3.544542984394790e+001	4.009749e-001	-3.245562e-002	1.046914e+000
3.554542984394790e+001	3.971286e-001	-3.065096e-002	1.048544e+000
3.564542984394790e+001	3.930295e-001	-2.858215e-002	1.050448e+000
3.574542984394790e+001	3.886823e-001	-2.625408e-002	1.052624e+000
3.584542984394791e+001	3.840921e-001	-2.367184e-002	1.055067e+000
3.594542984394791e+001	3.792642e-001	-2.084074e-002	1.057775e+000
3.604542984394791e+001	3.742041e-001	-1.776631e-002	1.060742e+000
3.614542984394791e+001	3.689173e-001	-1.445429e-002	1.063964e+000
3.624542984394791e+001	3.634099e-001	-1.091061e-002	1.067438e+000
3.634542984394791e+001	3.576877e-001	-7.141384e-003	1.071157e+000
3.644542984394791e+001	3.517572e-001	-3.152922e-003	1.075117e+000
3.654542984394792e+001	3.456247e-001	1.048295e-003	1.079312e+000
3.664542984394792e+001	3.392967e-001	5.455616e-003	1.083737e+000
3.674542984394792e+001	3.327801e-001	1.006223e-002	1.088387e+000
3.684542984394792e+001	3.260818e-001	1.486117e-002	1.093255e+000
3.694542984394792e+001	3.192087e-001	1.984533e-002	1.098336e+000
3.704542984394792e+001	3.121682e-001	2.500745e-002	1.103623e+000
3.714542984394792e+001	3.049675e-001	3.034015e-002	1.109109e+000
3.734542984394793e+001	2.901154e-001	4.148717e-002	1.120655e+000
3.754542984394793e+001	2.747135e-001	5.322506e-002	1.132918e+000
3.784542984394793e+001	2.507164e-001	7.180178e-002	1.152536e+000
3.805971555823365e+001	2.328205e-001	8.588216e-002	1.167546e+000
3.827400127251937e+001	2.147587e-001	1.001724e-001	1.182942e+000
3.848828698680509e+001	1.965309e-001	1.146725e-001	1.198723e+000
3.870257270109080e+001	1.781371e-001	1.293824e-001	1.214891e+000
3.891685841537652e+001	1.595773e-001	1.443022e-001	1.231444e+000
3.913114412966224e+001	1.408515e-001	1.594318e-001	1.248383e+000
3.934542984394795e+001	1.219597e-001	1.747712e-001	1.265708e+000
3.950257270109081e+001	1.082501e-001	1.859021e-001	1.278416e+000
3.965971555823367e+001	9.470795e-002	1.968874e-001	1.291072e+000
3.981685841537653e+001	8.133324e-002	2.077273e-001	1.303675e+000
3.997400127251940e+001	6.812596e-002	2.184216e-001	1.316228e+000
4.013114412966225e+001	5.508613e-002	2.289704e-001	1.328728e+000
4.028828698680511e+001	4.221374e-002	2.393737e-001	1.341176e+000
4.044542984394797e+001	2.950879e-002	2.496315e-001	1.353572e+000
4.054542984394797e+001	2.160654e-002	2.559873e-001	1.361332e+000
4.064542984394797e+001	1.381877e-002	2.622371e-001	1.369022e+000
4.074542984394797e+001	6.152104e-003	2.683744e-001	1.376633e+000
4.084542984394798e+001	-1.387001e-003	2.743926e-001	1.384159e+000
4.094542984394798e+001	-8.792238e-003	2.802854e-001	1.391592e+000
4.104542984394798e+001	-1.605747e-002	2.860464e-001	1.398926e+000
4.114542984394798e+001	-2.317672e-002	2.916699e-001	1.406155e+000
4.124542984394798e+001	-3.014421e-002	2.971499e-001	1.413270e+000
4.144542984394798e+001	-4.360162e-002	3.076570e-001	1.427138e+000
4.164542984394799e+001	-5.638707e-002	3.175247e-001	1.440479e+000
4.184542984394799e+001	-6.846099e-002	3.267132e-001	1.453247e+000
4.204542984394799e+001	-7.978708e-002	3.351857e-001	1.465397e+000
4.234542984394800e+001	-9.530280e-002	3.464800e-001	1.482375e+000
4.264542984394800e+001	-1.089657e-001	3.559913e-001	1.497742e+000
4.294542984394801e+001	-1.206968e-001	3.636395e-001	1.511389e+000
4.324542984394801e+001	-1.304357e-001	3.693629e-001	1.523224e+000
4.354542984394801e+001	-1.381403e-001	3.731183e-001	1.533169e+000
4.384542984394802e+001	-1.437873e-001	3.748815e-001	1.541168e+000
4.414542984394802e+001	-1.473719e-001	3.746464e-001	1.547181e+000
4.444542984394803e+001	-1.489076e-001	3.724256e-001	1.551188e+000
4.474542984394803e+001	-1.484256e-001	3.682491e-001	1.553187e+000
4.504542984394804e+001	-1.459746e-001	3.621647e-001	1.553191e+000
4.534542984394804e+001	-1.416198e-001	3.542366e-001	1.551236e+000
4.564542984394804e+001	-1.354421e-001	3.445447e-001	1.547369e+000
4.594542984394805e+001	-1.275372e-001	3.331836e-001	1.541658e+000
4.624542984394805e+001	-1.180143e-001	3.202617e-001	1.534183e+000
4.654542984394806e+001	-1.069953e-001	3.058998e-001	1.525041e+000
4.684542984394806e+001	-9.461297e-002	2.902299e-001	1.514340e+000
4.714542984394807e+001	-8.101013e-002	2.733938e-001	1.502202e+000
4.744542984394807e+001	-6.633784e-002	2.555416e-001	1.488759e+000
4.774542984394807e+001	-5.075404e-002	2.368306e-001	1.474152e+000
4.804542984394808e+001	-3.442207e-002	2.174230e-001	1.458531e+000
4.834542984394808e+001	-1.750906e-002	1.974853e-001	1.442051e+000
4.854542984394809e+001	-5.994534e-003	1.839821e-001	1.430667e+000
4.864542984394809e+001	-1.844242e-004	1.771859e-001	1.424874e+000
4.884542984394809e+001	1.150998e-002	1.635357e-001	1.413117e+000
4.898828698680524e+001	1.994545e-002	1.537166e-001	1.404556e+000
4.913114412966238e+001	2.834713e-002	1.439421e-001	1.395963e+000
4.927400127251953e+001	3.671502e-002	1.342122e-001	1.387338e+000
4.941685841537667e+001	4.504912e-002	1.245267e-001	1.378680e+000
4.955971555823381e+001	5.334943e-002	1.148857e-001	1.369989e+000
4.970257270109096e+001	6.161595e-002	1.052893e-001	1.361266e+000
4.984542984394810e+001	6.984867e-002	9.573738e-002	1.352511e+000
5.001685841537667e+001	7.961508e-002	8.440179e-002	1.342028e+000
5.018828698680525e+001	8.914988e-002	7.331234e-002	1.331689e+000
5.035971555823382e+001	9.845307e-002	6.246903e-002	1.321496e+000
5.053114412966240e+001	1.075246e-001	5.187186e-002	1.311448e+000
5.070257270109097e+001	1.163646e-001	4.152084e-002	1.301545e+000
5.087400127251955e+001	1.249730e-001	3.141595e-002	1.291787e+000
5.104542984394812e+001	1.333497e-001	2.155721e-002	1.282174e+000
5.114542984394812e+001	1.380535e-001	1.599519e-002	1.276716e+000
5.124542984394812e+001	1.426448e-001	1.055042e-002	1.271345e+000
5.134542984394813e+001	1.471194e-001	5.227107e-003	1.266066e+000
5.144542984394813e+001	1.514731e-001	2.932778e-005	1.260882e+000
5.154542984394813e+001	1.557021e-001	-5.038993e-003	1.255800e+000
5.164542984394813e+001	1.598025e-001	-9.974079e-003	1.250823e+000
5.174542984394813e+001	1.637706e-001	-1.477230e-002	1.245956e+000
5.184542984394813e+001	1.676031e-001	-1.943019e-002	1.241204e+000
5.194542984394813e+001	1.712964e-001	-2.394442e-002	1.236569e+000
5.204542984394814e+001	1.748475e-001	-2.831183e-002	1.232056e+000
5.224542984394814e+001	1.815108e-001	-3.659439e-002	1.223413e+000
5.244542984394814e+001	1.875710e-001	-4.425583e-002	1.215302e+000
5.264542984394814e+001	1.930084e-001	-5.127682e-002	1.207749e+000
5.284542984394815e+001	1.978062e-001	-5.764069e-002	1.200780e+000
5.304542984394815e+001	2.019503e-001	-6.333358e-002	1.194415e+000
5.324542984394815e+001	2.054294e-001	-6.834434e-002	1.188672e+000
5.354542984394816e+001	2.093833e-001	-7.456407e-002	1.181259e+000
5.384542984394816e+001	2.118055e-001	-7.921463e-002	1.175325e+000
5.414542984394817e+001	2.126931e-001	-8.229371e-002	1.170898e+000
5.444542984394817e+001	2.120569e-001	-8.381288e-002	1.167993e+000
5.474542984394817e+001	2.099215e-001	-8.379716e-002	1.166610e+000
5.504542984394818e+001	2.063243e-001	-8.228465e-002	1.166737e+000
5.534542984394818e+001	2.013155e-001	-7.932598e-002	1.168347e+000
5.564542984394819e+001	1.949568e-001	-7.498363e-002	1.171402e+000
5.594542984394819e+001	1.873213e-001	-6.933114e-002	1.175850e+000
5.624542984394820e+001	1.784923e-001	-6.245237e-002	1.181629e+000
5.654542984394820e+001	1.685625e-001	-5.444052e-002	1.188666e+000
5.684542984394820e+001	1.576329e-001	-4.539716e-002	1.196876e+000
5.714542984394821e+001	1.458118e-001	-3.543118e-002	1.206167e+000
